! Created Fri Apr  5 19:09:32 2024
# hz S db R 50
! 2 Port Network Data from SP1.SP block
! freq  dbS11  angS11  dbS21  angS21  dbS12  angS12  dbS22  angS22  
!     
7e+09   -1.08598359e-06        -5.32361936        -66.0344803         84.6763805        -66.0344803         84.6763805    -1.08598359e-06        -5.32361936
7.001e+09   -1.10258157e-06        -5.43704965        -65.9684066         84.5629502        -65.9684066         84.5629502    -1.10258157e-06        -5.43704965
7.002e+09   -1.11945416e-06        -5.55063477        -65.9022543         84.4493651        -65.9022543         84.4493651    -1.11945416e-06        -5.55063477
7.003e+09   -1.13660623e-06        -5.66437531        -65.8360229         84.3356246        -65.8360229         84.3356246    -1.13660623e-06        -5.66437531
7.004e+09   -1.15404278e-06        -5.77827186        -65.7697125          84.221728        -65.7697125          84.221728    -1.15404278e-06        -5.77827186
7.005e+09   -1.17176886e-06        -5.89232503        -65.7033227         84.1076749        -65.7033227         84.1076749    -1.17176886e-06        -5.89232503
7.006e+09   -1.18978965e-06        -6.00653542        -65.6368533         83.9934645        -65.6368533         83.9934645    -1.18978966e-06        -6.00653542
7.007e+09   -1.20811043e-06        -6.12090363        -65.5703042         83.8790963        -65.5703042         83.8790963    -1.20811043e-06        -6.12090363
7.008e+09   -1.22673653e-06        -6.23543028        -65.5036751         83.7645696        -65.5036751         83.7645696    -1.22673653e-06        -6.23543028
7.009e+09   -1.24567345e-06        -6.35011598        -65.4369659         83.6498839        -65.4369659         83.6498839    -1.24567345e-06        -6.35011598
7.01e+09   -1.26492675e-06        -6.46496135        -65.3701763         83.5350385        -65.3701763         83.5350385    -1.26492675e-06        -6.46496135
7.011e+09   -1.28450212e-06          -6.579967        -65.3033061         83.4200329        -65.3033061         83.4200329    -1.28450213e-06          -6.579967
7.012e+09   -1.30440536e-06        -6.69513356        -65.2363551         83.3048663        -65.2363551         83.3048663    -1.30440536e-06        -6.69513356
7.013e+09   -1.32464236e-06        -6.81046166        -65.1693231         83.1895382        -65.1693231         83.1895382    -1.32464236e-06        -6.81046166
7.014e+09   -1.34521913e-06        -6.92595192        -65.1022099          83.074048        -65.1022099          83.074048    -1.34521913e-06        -6.92595192
7.015e+09   -1.36614182e-06        -7.04160499        -65.0350153         82.9583949        -65.0350153         82.9583949    -1.36614182e-06        -7.04160499
7.016e+09   -1.38741668e-06        -7.15742149         -64.967739         82.8425784         -64.967739         82.8425784    -1.38741668e-06        -7.15742149
7.017e+09   -1.40905007e-06        -7.27340207        -64.9003809         82.7265978        -64.9003809         82.7265978    -1.40905007e-06        -7.27340207
7.018e+09   -1.43104849e-06        -7.38954738        -64.8329408         82.6104525        -64.8329408         82.6104525    -1.43104849e-06        -7.38954738
7.019e+09   -1.45341857e-06        -7.50585806        -64.7654183         82.4941418        -64.7654183         82.4941418    -1.45341857e-06        -7.50585806
7.02e+09   -1.47616705e-06        -7.62233476        -64.6978134         82.3776651        -64.6978134         82.3776651    -1.47616706e-06        -7.62233476
7.021e+09   -1.49930083e-06        -7.73897814        -64.6301258         82.2610218        -64.6301258         82.2610218    -1.49930083e-06        -7.73897814
7.022e+09    -1.5228269e-06        -7.85578885        -64.5623552          82.144211        -64.5623552          82.144211     -1.5228269e-06        -7.85578885
7.023e+09   -1.54675243e-06        -7.97276757        -64.4945015         82.0272323        -64.4945015         82.0272323    -1.54675243e-06        -7.97276757
7.024e+09    -1.5710847e-06        -8.08991495        -64.4265644         81.9100849        -64.4265644         81.9100849     -1.5710847e-06        -8.08991495
7.025e+09   -1.59583116e-06        -8.20723167        -64.3585437         81.7927682        -64.3585437         81.7927682    -1.59583116e-06        -8.20723167
7.026e+09   -1.62099938e-06        -8.32471841        -64.2904393         81.6752815        -64.2904393         81.6752815    -1.62099938e-06        -8.32471841
7.027e+09   -1.64659709e-06        -8.44237583        -64.2222508         81.5576241        -64.2222508         81.5576241    -1.64659709e-06        -8.44237583
7.028e+09   -1.67263216e-06        -8.56020462         -64.153978         81.4397953         -64.153978         81.4397953    -1.67263216e-06        -8.56020462
7.029e+09   -1.69911264e-06        -8.67820546        -64.0856208         81.3217944        -64.0856208         81.3217944    -1.69911265e-06        -8.67820546
7.03e+09   -1.72604674e-06        -8.79637905        -64.0171788         81.2036208        -64.0171788         81.2036208    -1.72604674e-06        -8.79637905
7.031e+09   -1.75344278e-06        -8.91472608        -63.9486519         81.0852738        -63.9486519         81.0852738    -1.75344278e-06        -8.91472608
7.032e+09   -1.78130929e-06        -9.03324724        -63.8800399         80.9667526        -63.8800399         80.9667526    -1.78130929e-06        -9.03324724
7.033e+09   -1.80965496e-06        -9.15194324        -63.8113425         80.8480566        -63.8113425         80.8480566    -1.80965496e-06        -9.15194324
7.034e+09   -1.83848866e-06        -9.27081478        -63.7425595         80.7291851        -63.7425595         80.7291851    -1.83848866e-06        -9.27081478
7.035e+09   -1.86781941e-06        -9.38986257        -63.6736906         80.6101373        -63.6736906         80.6101373    -1.86781941e-06        -9.38986257
7.036e+09   -1.89765642e-06        -9.50908733        -63.6047356         80.4909126        -63.6047356         80.4909126    -1.89765642e-06        -9.50908733
7.037e+09   -1.92800911e-06        -9.62848976        -63.5356944         80.3715101        -63.5356944         80.3715101     -1.9280091e-06        -9.62848976
7.038e+09   -1.95888703e-06         -9.7480706        -63.4665666         80.2519293        -63.4665666         80.2519293    -1.95888704e-06         -9.7480706
7.039e+09   -1.99029999e-06        -9.86783057         -63.397352         80.1321693         -63.397352         80.1321693    -1.99029999e-06        -9.86783057
7.04e+09   -2.02225794e-06        -9.98777039        -63.3280504         80.0122295        -63.3280504         80.0122295    -2.02225794e-06        -9.98777039
7.041e+09   -2.05477106e-06        -10.1078908        -63.2586616         79.8921091        -63.2586616         79.8921091    -2.05477106e-06        -10.1078908
7.042e+09    -2.0878497e-06        -10.2281926        -63.1891853         79.7718073        -63.1891853         79.7718073     -2.0878497e-06        -10.2281926
7.043e+09   -2.12150446e-06        -10.3486764        -63.1196212         79.6513235        -63.1196212         79.6513235    -2.12150446e-06        -10.3486764
7.044e+09   -2.15574611e-06         -10.469343        -63.0499692         79.5306569        -63.0499692         79.5306569    -2.15574612e-06         -10.469343
7.045e+09   -2.19058569e-06        -10.5901932         -62.980229         79.4098067         -62.980229         79.4098067     -2.1905857e-06        -10.5901932
7.046e+09   -2.22603439e-06        -10.7112277        -62.9104004         79.2887721        -62.9104004         79.2887721     -2.2260344e-06        -10.7112277
7.047e+09   -2.26210369e-06        -10.8324474        -62.8404831         79.1675525        -62.8404831         79.1675525     -2.2621037e-06        -10.8324474
7.048e+09   -2.29880528e-06        -10.9538528        -62.7704768          79.046147        -62.7704768          79.046147    -2.29880528e-06        -10.9538528
7.049e+09   -2.33615105e-06        -11.0754449        -62.7003814          78.924555        -62.7003814          78.924555    -2.33615105e-06        -11.0754449
7.05e+09   -2.37415319e-06        -11.1972244        -62.6301965         78.8027755        -62.6301965         78.8027755    -2.37415319e-06        -11.1972244
7.051e+09   -2.41282409e-06        -11.3191921         -62.559922         78.6808078         -62.559922         78.6808078    -2.41282409e-06        -11.3191921
7.052e+09   -2.45217641e-06        -11.4413487        -62.4895575         78.5586512        -62.4895575         78.5586512    -2.45217642e-06        -11.4413487
7.053e+09   -2.49222309e-06         -11.563695        -62.4191029         78.4363049        -62.4191029         78.4363049    -2.49222308e-06         -11.563695
7.054e+09   -2.53297728e-06        -11.6862319        -62.3485579          78.313768        -62.3485579          78.313768    -2.53297728e-06        -11.6862319
7.055e+09   -2.57445242e-06        -11.8089601        -62.2779222         78.1910398        -62.2779222         78.1910398    -2.57445242e-06        -11.8089601
7.056e+09   -2.61666225e-06        -11.9318804        -62.2071956         78.0681195        -62.2071956         78.0681195    -2.61666226e-06        -11.9318804
7.057e+09   -2.65962077e-06        -12.0549937        -62.1363779         77.9450062        -62.1363779         77.9450062    -2.65962077e-06        -12.0549937
7.058e+09   -2.70334225e-06        -12.1783007        -62.0654687         77.8216992        -62.0654687         77.8216992    -2.70334225e-06        -12.1783007
7.059e+09   -2.74784127e-06        -12.3018023        -61.9944678         77.6981976        -61.9944678         77.6981976    -2.74784127e-06        -12.3018023
7.06e+09   -2.79313271e-06        -12.4254993         -61.923375         77.5745006         -61.923375         77.5745006    -2.79313271e-06        -12.4254993
7.061e+09   -2.83923173e-06        -12.5493924          -61.85219         77.4506074          -61.85219         77.4506074    -2.83923174e-06        -12.5493924
7.062e+09   -2.88615386e-06        -12.6734826        -61.7809125         77.3265172        -61.7809125         77.3265172    -2.88615386e-06        -12.6734826
7.063e+09   -2.93391487e-06        -12.7977707        -61.7095423         77.2022292        -61.7095423         77.2022292    -2.93391488e-06        -12.7977707
7.064e+09   -2.98253094e-06        -12.9222575        -61.6380792         77.0777424        -61.6380792         77.0777424    -2.98253093e-06        -12.9222575
7.065e+09   -3.03201847e-06        -13.0469439        -61.5665228          76.953056        -61.5665228          76.953056    -3.03201847e-06        -13.0469439
7.066e+09   -3.08239433e-06        -13.1718307        -61.4948729         76.8281692        -61.4948729         76.8281692    -3.08239433e-06        -13.1718307
7.067e+09   -3.13367564e-06        -13.2969187        -61.4231292         76.7030812        -61.4231292         76.7030812    -3.13367565e-06        -13.2969187
7.068e+09   -3.18587993e-06        -13.4222088        -61.3512915          76.577791        -61.3512915          76.577791    -3.18587993e-06        -13.4222088
7.069e+09   -3.23902506e-06         -13.547702        -61.2793595         76.4522979        -61.2793595         76.4522979    -3.23902506e-06         -13.547702
7.07e+09   -3.29312927e-06         -13.673399        -61.2073329         76.3266009        -61.2073329         76.3266009    -3.29312927e-06         -13.673399
7.071e+09    -3.3482112e-06        -13.7993008        -61.1352115         76.2006991        -61.1352115         76.2006991    -3.34821119e-06        -13.7993008
7.072e+09   -3.40428983e-06        -13.9254082        -61.0629949         76.0745917        -61.0629949         76.0745917    -3.40428983e-06        -13.9254082
7.073e+09    -3.4613846e-06        -14.0517221         -60.990683         75.9482778         -60.990683         75.9482778     -3.4613846e-06        -14.0517221
7.074e+09   -3.51951528e-06        -14.1782434        -60.9182754         75.8217565        -60.9182754         75.8217565    -3.51951529e-06        -14.1782434
7.075e+09   -3.57870213e-06         -14.304973        -60.8457719         75.6950269        -60.8457719         75.6950269    -3.57870214e-06         -14.304973
7.076e+09   -3.63896579e-06        -14.4319118        -60.7731722         75.5680881        -60.7731722         75.5680881     -3.6389658e-06        -14.4319118
7.077e+09   -3.70032733e-06        -14.5590607         -60.700476         75.4409392         -60.700476         75.4409392    -3.70032734e-06        -14.5590607
7.078e+09   -3.76280829e-06        -14.6864206         -60.627683         75.3135792         -60.627683         75.3135792    -3.76280829e-06        -14.6864206
7.079e+09   -3.82643061e-06        -14.8139925        -60.5547929         75.1860073        -60.5547929         75.1860073    -3.82643061e-06        -14.8139925
7.08e+09   -3.89121677e-06        -14.9417773        -60.4818056         75.0582226        -60.4818056         75.0582226    -3.89121677e-06        -14.9417773
7.081e+09   -3.95718965e-06        -15.0697759        -60.4087206          74.930224        -60.4087206          74.930224    -3.95718965e-06        -15.0697759
7.082e+09   -4.02437264e-06        -15.1979893        -60.3355377         74.8020106        -60.3355377         74.8020106    -4.02437264e-06        -15.1979893
7.083e+09   -4.09278965e-06        -15.3264183        -60.2622567         74.6735816        -60.2622567         74.6735816    -4.09278965e-06        -15.3264183
7.084e+09   -4.16246507e-06         -15.455064        -60.1888772         74.5449359        -60.1888772         74.5449359    -4.16246507e-06         -15.455064
7.085e+09   -4.23342378e-06        -15.5839273        -60.1153989         74.4160726        -60.1153989         74.4160726    -4.23342378e-06        -15.5839273
7.086e+09   -4.30569125e-06        -15.7130091        -60.0418215         74.2869908        -60.0418215         74.2869908    -4.30569125e-06        -15.7130091
7.087e+09   -4.37929344e-06        -15.8423105        -59.9681449         74.1576894        -59.9681449         74.1576894    -4.37929344e-06        -15.8423105
7.088e+09   -4.45425689e-06        -15.9718323        -59.8943686         74.0281676        -59.8943686         74.0281676    -4.45425689e-06        -15.9718323
7.089e+09   -4.53060869e-06        -16.1015757        -59.8204924         73.8984242        -59.8204924         73.8984242    -4.53060869e-06        -16.1015757
7.09e+09   -4.60837652e-06        -16.2315415        -59.7465159         73.7684584        -59.7465159         73.7684584    -4.60837652e-06        -16.2315415
7.091e+09   -4.68758864e-06        -16.3617308         -59.672439         73.6382691         -59.672439         73.6382691    -4.68758864e-06        -16.3617308
7.092e+09   -4.76827393e-06        -16.4921445        -59.5982612         73.5078554        -59.5982612         73.5078554    -4.76827393e-06        -16.4921445
7.093e+09   -4.85046187e-06        -16.6227837        -59.5239823         73.3772162        -59.5239823         73.3772162    -4.85046187e-06        -16.6227837
7.094e+09   -4.93418258e-06        -16.7536494        -59.4496021         73.2463505        -59.4496021         73.2463505    -4.93418258e-06        -16.7536494
7.095e+09   -5.01946683e-06        -16.8847426          -59.37512         73.1152573          -59.37512         73.1152573    -5.01946684e-06        -16.8847426
7.096e+09   -5.10634607e-06        -17.0160643         -59.300536         72.9839356         -59.300536         72.9839356    -5.10634608e-06        -17.0160643
7.097e+09   -5.19485239e-06        -17.1476155        -59.2258497         72.8523844        -59.2258497         72.8523844    -5.19485239e-06        -17.1476155
7.098e+09    -5.2850186e-06        -17.2793973        -59.1510607         72.7206025        -59.1510607         72.7206025     -5.2850186e-06        -17.2793973
7.099e+09    -5.3768782e-06        -17.4114108        -59.0761688         72.5885891        -59.0761688         72.5885891    -5.37687821e-06        -17.4114108
7.1e+09   -5.47046544e-06         -17.543657        -59.0011736         72.4563429        -59.0011736         72.4563429    -5.47046544e-06         -17.543657
7.101e+09   -5.56581529e-06        -17.6761368        -58.9260749          72.323863        -58.9260749          72.323863    -5.56581529e-06        -17.6761368
7.102e+09   -5.66296349e-06        -17.8088515        -58.8508723         72.1911483        -58.8508723         72.1911483    -5.66296349e-06        -17.8088515
7.103e+09   -5.76194656e-06        -17.9418021        -58.7755655         72.0581977        -58.7755655         72.0581977    -5.76194656e-06        -17.9418021
7.104e+09   -5.86280179e-06        -18.0749897        -58.7001542         71.9250102        -58.7001542         71.9250102     -5.8628018e-06        -18.0749897
7.105e+09   -5.96556733e-06        -18.2084153        -58.6246381         71.7915846        -58.6246381         71.7915846    -5.96556733e-06        -18.2084153
7.106e+09   -6.07028213e-06          -18.34208        -58.5490169         71.6579199        -58.5490169         71.6579199    -6.07028212e-06          -18.34208
7.107e+09   -6.17698597e-06        -18.4759849        -58.4732902         71.5240149        -58.4732902         71.5240149    -6.17698598e-06        -18.4759849
7.108e+09   -6.28571956e-06        -18.6101312        -58.3974577         71.3898686        -58.3974577         71.3898686    -6.28571956e-06        -18.6101312
7.109e+09   -6.39652448e-06          -18.74452        -58.3215192         71.2554799        -58.3215192         71.2554799    -6.39652447e-06          -18.74452
7.11e+09   -6.50944316e-06        -18.8791523        -58.2454741         71.1208475        -58.2454741         71.1208475    -6.50944317e-06        -18.8791523
7.111e+09   -6.62451909e-06        -19.0140294        -58.1693224         70.9859705        -58.1693224         70.9859705    -6.62451908e-06        -19.0140294
7.112e+09   -6.74179658e-06        -19.1491523        -58.0930635         70.8508476        -58.0930635         70.8508476    -6.74179658e-06        -19.1491523
7.113e+09   -6.86132103e-06        -19.2845222        -58.0166973         70.7154777        -58.0166973         70.7154777    -6.86132103e-06        -19.2845222
7.114e+09   -6.98313878e-06        -19.4201402        -57.9402233         70.5798597        -57.9402233         70.5798597    -6.98313878e-06        -19.4201402
7.115e+09    -7.1072972e-06        -19.5560075        -57.8636412         70.4439923        -57.8636412         70.4439923     -7.1072972e-06        -19.5560075
7.116e+09   -7.23384475e-06        -19.6921253        -57.7869507         70.3078745        -57.7869507         70.3078745    -7.23384475e-06        -19.6921253
7.117e+09   -7.36283092e-06        -19.8284948        -57.7101515         70.1715051        -57.7101515         70.1715051    -7.36283092e-06        -19.8284948
7.118e+09   -7.49430632e-06        -19.9651171        -57.6332431         70.0348828        -57.6332431         70.0348828    -7.49430631e-06        -19.9651171
7.119e+09   -7.62832267e-06        -20.1019934        -57.5562254         69.8980065        -57.5562254         69.8980065    -7.62832267e-06        -20.1019934
7.12e+09   -7.76493288e-06        -20.2391249        -57.4790979          69.760875        -57.4790979          69.760875    -7.76493288e-06        -20.2391249
7.121e+09     -7.904191e-06        -20.3765128        -57.4018602         69.6234871        -57.4018602         69.6234871      -7.904191e-06        -20.3765128
