! Created Fri Apr  5 20:04:46 2024
# hz S db R 50
! 2 Port Network Data from SP1.SP block
! freq  dbS11  angS11  dbS21  angS21  dbS12  angS12  dbS22  angS22  
!     
7e+09      -0.241950054        -4.26265087        -74.2469218         79.0344755        -74.2469218         79.0344755       -0.241950054        -4.26265087
7.001e+09      -0.242381541        -4.38093226        -74.1677069         78.9070327        -74.1677069         78.9070327       -0.242381541        -4.38093226
7.002e+09      -0.242814905        -4.49941135        -74.0884023         78.7793686        -74.0884023         78.7793686       -0.242814905        -4.49941135
7.003e+09      -0.243250157        -4.61808902        -74.0090077         78.6514822        -74.0090077         78.6514822       -0.243250157        -4.61808902
7.004e+09       -0.24368731        -4.73696611        -73.9295229         78.5233726        -73.9295229         78.5233726        -0.24368731        -4.73696611
7.005e+09      -0.244126374        -4.85604352        -73.8499476         78.3950387        -73.8499476         78.3950387       -0.244126374        -4.85604352
7.006e+09      -0.244567361        -4.97532212        -73.7702818         78.2664797        -73.7702818         78.2664797       -0.244567361        -4.97532212
7.007e+09      -0.245010282        -5.09480279         -73.690525         78.1376945         -73.690525         78.1376945       -0.245010282        -5.09480279
7.008e+09       -0.24545515        -5.21448642        -73.6106771         78.0086821        -73.6106771         78.0086821        -0.24545515        -5.21448642
7.009e+09      -0.245901977        -5.33437391        -73.5307379         77.8794415        -73.5307379         77.8794415       -0.245901977        -5.33437391
7.01e+09      -0.246350773        -5.45446616        -73.4507071         77.7499719        -73.4507071         77.7499719       -0.246350773        -5.45446616
7.011e+09      -0.246801552        -5.57476408        -73.3705845          77.620272        -73.3705845          77.620272       -0.246801552        -5.57476408
7.012e+09      -0.247254325        -5.69526857        -73.2903699          77.490341        -73.2903699          77.490341       -0.247254325        -5.69526857
7.013e+09      -0.247709105        -5.81598056        -73.2100629         77.3601778        -73.2100629         77.3601778       -0.247709105        -5.81598056
7.014e+09      -0.248165904        -5.93690096        -73.1296635         77.2297814        -73.1296635         77.2297814       -0.248165904        -5.93690096
7.015e+09      -0.248624734        -6.05803071        -73.0491712         77.0991508        -73.0491712         77.0991508       -0.248624734        -6.05803071
7.016e+09      -0.249085608        -6.17937073         -72.968586         76.9682849         -72.968586         76.9682849       -0.249085608        -6.17937073
7.017e+09      -0.249548538        -6.30092198        -72.8879075         76.8371826        -72.8879075         76.8371826       -0.249548538        -6.30092198
7.018e+09      -0.250013537        -6.42268538        -72.8071355         76.7058431        -72.8071355         76.7058431       -0.250013537        -6.42268538
7.019e+09      -0.250480619         -6.5446619        -72.7262698         76.5742651        -72.7262698         76.5742651       -0.250480619         -6.5446619
7.02e+09      -0.250949795        -6.66685249        -72.6453102         76.4424476        -72.6453102         76.4424476       -0.250949795        -6.66685249
7.021e+09      -0.251421078        -6.78925812        -72.5642563         76.3103896        -72.5642563         76.3103896       -0.251421078        -6.78925812
7.022e+09      -0.251894483        -6.91187975        -72.4831079           76.17809        -72.4831079           76.17809       -0.251894483        -6.91187975
7.023e+09      -0.252370022        -7.03471835        -72.4018649         76.0455477        -72.4018649         76.0455477       -0.252370022        -7.03471835
7.024e+09      -0.252847708        -7.15777491        -72.3205269         75.9127616        -72.3205269         75.9127616       -0.252847708        -7.15777491
7.025e+09      -0.253327555        -7.28105042        -72.2390937         75.7797306        -72.2390937         75.7797306       -0.253327555        -7.28105042
7.026e+09      -0.253809576        -7.40454587         -72.157565         75.6464537         -72.157565         75.6464537       -0.253809576        -7.40454587
7.027e+09      -0.254293786        -7.52826225        -72.0759406         75.5129296        -72.0759406         75.5129296       -0.254293786        -7.52826225
7.028e+09      -0.254780196        -7.65220057        -71.9942203         75.3791574        -71.9942203         75.3791574       -0.254780196        -7.65220057
7.029e+09      -0.255268823        -7.77636185        -71.9124038         75.2451359        -71.9124038         75.2451359       -0.255268823        -7.77636185
7.03e+09      -0.255759678         -7.9007471        -71.8304908         75.1108639        -71.8304908         75.1108639       -0.255759678         -7.9007471
7.031e+09      -0.256252778        -8.02535734        -71.7484811         74.9763404        -71.7484811         74.9763404       -0.256252778        -8.02535734
7.032e+09      -0.256748134        -8.15019361        -71.6663744         74.8415641        -71.6663744         74.8415641       -0.256748134        -8.15019361
7.033e+09      -0.257245763        -8.27525695        -71.5841705          74.706534        -71.5841705          74.706534       -0.257245763        -8.27525695
7.034e+09      -0.257745678        -8.40054838        -71.5018691         74.5712488        -71.5018691         74.5712488       -0.257745678        -8.40054838
7.035e+09      -0.258247894        -8.52606898          -71.41947         74.4357075          -71.41947         74.4357075       -0.258247894        -8.52606898
7.036e+09      -0.258752425        -8.65181978        -71.3369729         74.2999088        -71.3369729         74.2999088       -0.258752425        -8.65181978
7.037e+09      -0.259259287        -8.77780187        -71.2543775         74.1638516        -71.2543775         74.1638516       -0.259259287        -8.77780187
7.038e+09      -0.259768493         -8.9040163        -71.1716836         74.0275347        -71.1716836         74.0275347       -0.259768493         -8.9040163
7.039e+09      -0.260280059        -9.03046415        -71.0888909         73.8909568        -71.0888909         73.8909568       -0.260280059        -9.03046415
7.04e+09      -0.260794001        -9.15714651        -71.0059992         73.7541169        -71.0059992         73.7541169       -0.260794001        -9.15714651
7.041e+09      -0.261310332        -9.28406447        -70.9230082         73.6170137        -70.9230082         73.6170137       -0.261310332        -9.28406447
7.042e+09       -0.26182907        -9.41121912        -70.8399176         73.4796459        -70.8399176         73.4796459        -0.26182907        -9.41121912
7.043e+09      -0.262350228        -9.53861157        -70.7567271         73.3420124        -70.7567271         73.3420124       -0.262350228        -9.53861157
7.044e+09      -0.262873823        -9.66624292        -70.6734365         73.2041119        -70.6734365         73.2041119       -0.262873823        -9.66624292
7.045e+09      -0.263399871        -9.79411431        -70.5900456         73.0659432        -70.5900456         73.0659432       -0.263399871        -9.79411431
7.046e+09      -0.263928386        -9.92222685         -70.506554         72.9275051         -70.506554         72.9275051       -0.263928386        -9.92222685
7.047e+09      -0.264459386        -10.0505817        -70.4229614         72.7887962        -70.4229614         72.7887962       -0.264459386        -10.0505817
7.048e+09      -0.264992887        -10.1791799        -70.3392677         72.6498154        -70.3392677         72.6498154       -0.264992887        -10.1791799
7.049e+09      -0.265528903        -10.3080228        -70.2554725         72.5105613        -70.2554725         72.5105613       -0.265528903        -10.3080228
7.05e+09      -0.266067453        -10.4371113        -70.1715756         72.3710327        -70.1715756         72.3710327       -0.266067453        -10.4371113
7.051e+09      -0.266608552        -10.5664468        -70.0875766         72.2312283        -70.0875766         72.2312283       -0.266608552        -10.5664468
7.052e+09      -0.267152217        -10.6960303        -70.0034754         72.0911468        -70.0034754         72.0911468       -0.267152217        -10.6960303
7.053e+09      -0.267698465        -10.8258631        -69.9192716         71.9507869        -69.9192716         71.9507869       -0.267698465        -10.8258631
7.054e+09      -0.268247312        -10.9559462        -69.8349649         71.8101474        -69.8349649         71.8101474       -0.268247312        -10.9559462
7.055e+09      -0.268798777         -11.086281        -69.7505551         71.6692267        -69.7505551         71.6692267       -0.268798777         -11.086281
7.056e+09      -0.269352875        -11.2168686        -69.6660419         71.5280238        -69.6660419         71.5280238       -0.269352875        -11.2168686
7.057e+09      -0.269909624        -11.3477103         -69.581425         71.3865371         -69.581425         71.3865371       -0.269909624        -11.3477103
7.058e+09      -0.270469043        -11.4788072        -69.4967042         71.2447655        -69.4967042         71.2447655       -0.270469043        -11.4788072
7.059e+09      -0.271031147        -11.6101605         -69.411879         71.1027074         -69.411879         71.1027074       -0.271031147        -11.6101605
7.06e+09      -0.271595956        -11.7417716        -69.3269494         70.9603616        -69.3269494         70.9603616       -0.271595956        -11.7417716
7.061e+09      -0.272163486        -11.8736415        -69.2419149         70.8177267        -69.2419149         70.8177267       -0.272163486        -11.8736415
7.062e+09      -0.272733757        -12.0057717        -69.1567752         70.6748013        -69.1567752         70.6748013       -0.272733757        -12.0057717
7.063e+09      -0.273306786        -12.1381633        -69.0715302          70.531584        -69.0715302          70.531584       -0.273306786        -12.1381633
7.064e+09      -0.273882592        -12.2708177        -68.9861794         70.3880735        -68.9861794         70.3880735       -0.273882592        -12.2708177
7.065e+09      -0.274461192         -12.403736        -68.9007227         70.2442682        -68.9007227         70.2442682       -0.274461192         -12.403736
7.066e+09      -0.275042607        -12.5369195        -68.8151597         70.1001669        -68.8151597         70.1001669       -0.275042607        -12.5369195
7.067e+09      -0.275626854        -12.6703697          -68.72949          69.955768          -68.72949          69.955768       -0.275626854        -12.6703697
7.068e+09      -0.276213953        -12.8040876        -68.6437136         69.8110702        -68.6437136         69.8110702       -0.276213953        -12.8040876
7.069e+09      -0.276803923        -12.9380748        -68.5578299          69.666072        -68.5578299          69.666072       -0.276803923        -12.9380748
7.07e+09      -0.277396783        -13.0723324        -68.4718388         69.5207719        -68.4718388         69.5207719       -0.277396783        -13.0723324
7.071e+09      -0.277992552        -13.2068618        -68.3857399         69.3751686        -68.3857399         69.3751686       -0.277992552        -13.2068618
7.072e+09       -0.27859125        -13.3416643        -68.2995329         69.2292604        -68.2995329         69.2292604        -0.27859125        -13.3416643
7.073e+09      -0.279192898        -13.4767413        -68.2132176          69.083046        -68.2132176          69.083046       -0.279192898        -13.4767413
7.074e+09      -0.279797514        -13.6120942        -68.1267936         68.9365238        -68.1267936         68.9365238       -0.279797514        -13.6120942
7.075e+09       -0.28040512        -13.7477242        -68.0402606         68.7896924        -68.0402606         68.7896924        -0.28040512        -13.7477242
7.076e+09      -0.281015735        -13.8836328        -67.9536184         68.6425502        -67.9536184         68.6425502       -0.281015735        -13.8836328
7.077e+09       -0.28162938        -14.0198214        -67.8668665         68.4950957        -67.8668665         68.4950957        -0.28162938        -14.0198214
7.078e+09      -0.282246075        -14.1562912        -67.7800048         68.3473273        -67.7800048         68.3473273       -0.282246075        -14.1562912
7.079e+09      -0.282865842        -14.2930438        -67.6930328         68.1992437        -67.6930328         68.1992437       -0.282865842        -14.2930438
7.08e+09      -0.283488701        -14.4300805        -67.6059503         68.0508431        -67.6059503         68.0508431       -0.283488701        -14.4300805
7.081e+09      -0.284114674        -14.5674028         -67.518757          67.902124         -67.518757          67.902124       -0.284114674        -14.5674028
7.082e+09      -0.284743782         -14.705012        -67.4314526         67.7530849        -67.4314526         67.7530849       -0.284743782         -14.705012
7.083e+09      -0.285376046        -14.8429097        -67.3440367         67.6037241        -67.3440367         67.6037241       -0.285376046        -14.8429097
7.084e+09      -0.286011489        -14.9810972         -67.256509         67.4540401         -67.256509         67.4540401       -0.286011489        -14.9810972
7.085e+09      -0.286650132         -15.119576        -67.1688693         67.3040313        -67.1688693         67.3040313       -0.286650132         -15.119576
7.086e+09      -0.287291997        -15.2583476        -67.0811171         67.1536961        -67.0811171         67.1536961       -0.287291997        -15.2583476
7.087e+09      -0.287937107        -15.3974135        -66.9932523         67.0030328        -66.9932523         67.0030328       -0.287937107        -15.3974135
7.088e+09      -0.288585484        -15.5367751        -66.9052743         66.8520397        -66.9052743         66.8520397       -0.288585484        -15.5367751
7.089e+09      -0.289237151        -15.6764339         -66.817183         66.7007153         -66.817183         66.7007153       -0.289237151        -15.6764339
7.09e+09      -0.289892131        -15.8163915        -66.7289781         66.5490579        -66.7289781         66.5490579       -0.289892131        -15.8163915
7.091e+09      -0.290550447        -15.9566493        -66.6406591         66.3970658        -66.6406591         66.3970658       -0.290550447        -15.9566493
7.092e+09      -0.291212122        -16.0972089        -66.5522257         66.2447374        -66.5522257         66.2447374       -0.291212122        -16.0972089
7.093e+09       -0.29187718        -16.2380719        -66.4636777         66.0920708        -66.4636777         66.0920708        -0.29187718        -16.2380719
7.094e+09      -0.292545644        -16.3792397        -66.3750147         65.9390645        -66.3750147         65.9390645       -0.292545644        -16.3792397
7.095e+09      -0.293217538         -16.520714        -66.2862363         65.7857168        -66.2862363         65.7857168       -0.293217538         -16.520714
7.096e+09      -0.293892888        -16.6624962        -66.1973423         65.6320258        -66.1973423         65.6320258       -0.293892888        -16.6624962
7.097e+09      -0.294571716        -16.8045881        -66.1083323         65.4779898        -66.1083323         65.4779898       -0.294571716        -16.8045881
7.098e+09      -0.295254047        -16.9469911         -66.019206         65.3236071         -66.019206         65.3236071       -0.295254047        -16.9469911
7.099e+09      -0.295939907         -17.089707         -65.929963          65.168876         -65.929963          65.168876       -0.295939907         -17.089707
7.1e+09       -0.29662932        -17.2327372         -65.840603         65.0137946         -65.840603         65.0137946        -0.29662932        -17.2327372
7.101e+09      -0.297322312        -17.3760834        -65.7511257         64.8583612        -65.7511257         64.8583612       -0.297322312        -17.3760834
7.102e+09      -0.298018908        -17.5197473        -65.6615306         64.7025739        -65.6615306         64.7025739       -0.298018908        -17.5197473
7.103e+09      -0.298719133        -17.6637305        -65.5718176          64.546431        -65.5718176          64.546431       -0.298719133        -17.6637305
7.104e+09      -0.299423014        -17.8080347        -65.4819861         64.3899306        -65.4819861         64.3899306       -0.299423014        -17.8080347
7.105e+09      -0.300130577        -17.9526616         -65.392036         64.2330709         -65.392036         64.2330709       -0.300130577        -17.9526616
7.106e+09      -0.300841847        -18.0976127        -65.3019668           64.07585        -65.3019668           64.07585       -0.300841847        -18.0976127
7.107e+09      -0.301556853        -18.2428899        -65.2117782         63.9182661        -65.2117782         63.9182661       -0.301556853        -18.2428899
7.108e+09       -0.30227562        -18.3884948        -65.1214698         63.7603172        -65.1214698         63.7603172        -0.30227562        -18.3884948
7.109e+09      -0.302998176        -18.5344292        -65.0310414         63.6020016        -65.0310414         63.6020016       -0.302998176        -18.5344292
7.11e+09      -0.303724547        -18.6806948        -64.9404924         63.4433172        -64.9404924         63.4433172       -0.303724547        -18.6806948
7.111e+09      -0.304454763        -18.8272933        -64.8498227         63.2842622        -64.8498227         63.2842622       -0.304454763        -18.8272933
7.112e+09       -0.30518885        -18.9742265        -64.7590318         63.1248346        -64.7590318         63.1248346        -0.30518885        -18.9742265
7.113e+09      -0.305926836        -19.1214961        -64.6681193         62.9650326        -64.6681193         62.9650326       -0.305926836        -19.1214961
7.114e+09       -0.30666875         -19.269104         -64.577085          62.804854         -64.577085          62.804854        -0.30666875         -19.269104
7.115e+09      -0.307414621         -19.417052        -64.4859284          62.644297        -64.4859284          62.644297       -0.307414621         -19.417052
7.116e+09      -0.308164477        -19.5653418        -64.3946492         62.4833596        -64.3946492         62.4833596       -0.308164477        -19.5653418
7.117e+09      -0.308918348        -19.7139753        -64.3032471         62.3220398        -64.3032471         62.3220398       -0.308918348        -19.7139753
7.118e+09      -0.309676263        -19.8629543        -64.2117216         62.1603355        -64.2117216         62.1603355       -0.309676263        -19.8629543
7.119e+09      -0.310438252        -20.0122806        -64.1200724         61.9982447        -64.1200724         61.9982447       -0.310438252        -20.0122806
7.12e+09      -0.311204344        -20.1619562        -64.0282992         61.8357654        -64.0282992         61.8357654       -0.311204344        -20.1619562
7.121e+09       -0.31197457        -20.3119829        -63.9364015         61.6728955        -63.9364015         61.6728955        -0.31197457        -20.3119829
