! Created Fri Apr  5 20:46:01 2024
# hz S db R 50
! 2 Port Network Data from SP1.SP block
! freq  dbS11  angS11  dbS21  angS21  dbS12  angS12  dbS22  angS22  
!     
7e+09      -0.319343099        -7.67301524        -69.4147124         73.6569383        -69.4147124         73.6569383       -0.319343099        -7.67301524
7.001e+09      -0.319974049        -7.80253916        -69.3295598         73.5163212        -69.3295598         73.5163212       -0.319974049        -7.80253916
7.002e+09      -0.320607936        -7.93231178        -69.2443044         73.3754236        -69.2443044         73.3754236       -0.320607936        -7.93231178
7.003e+09      -0.321244778         -8.0623343         -69.158946         73.2342443         -69.158946         73.2342443       -0.321244778         -8.0623343
7.004e+09      -0.321884595        -8.19260791        -69.0734843         73.0927818        -69.0734843         73.0927818       -0.321884595        -8.19260791
7.005e+09      -0.322527407        -8.32313381        -68.9879191         72.9510348        -68.9879191         72.9510348       -0.322527407        -8.32313381
7.006e+09      -0.323173232        -8.45391322        -68.9022499          72.809002        -68.9022499          72.809002       -0.323173232        -8.45391322
7.007e+09       -0.32382209        -8.58494734        -68.8164767          72.666682        -68.8164767          72.666682        -0.32382209        -8.58494734
7.008e+09      -0.324474002         -8.7162374        -68.7305989         72.5240735        -68.7305989         72.5240735       -0.324474002         -8.7162374
7.009e+09      -0.325128988        -8.84778463        -68.6446165         72.3811751        -68.6446165         72.3811751       -0.325128988        -8.84778463
7.01e+09      -0.325787067        -8.97959028         -68.558529         72.2379853         -68.558529         72.2379853       -0.325787067        -8.97959028
7.011e+09      -0.326448261         -9.1116556        -68.4723361         72.0945029        -68.4723361         72.0945029       -0.326448261         -9.1116556
7.012e+09      -0.327112589        -9.24398184        -68.3860377         71.9507263        -68.3860377         71.9507263       -0.327112589        -9.24398184
7.013e+09      -0.327780073        -9.37657027        -68.2996334         71.8066543        -68.2996334         71.8066543       -0.327780073        -9.37657027
7.014e+09      -0.328450734        -9.50942217        -68.2131228         71.6622852        -68.2131228         71.6622852       -0.328450734        -9.50942217
7.015e+09      -0.329124592        -9.64253881        -68.1265058         71.5176179        -68.1265058         71.5176179       -0.329124592        -9.64253881
7.016e+09      -0.329801669        -9.77592149        -68.0397819         71.3726507        -68.0397819         71.3726507       -0.329801669        -9.77592149
7.017e+09      -0.330481987        -9.90957151        -67.9529509         71.2273822        -67.9529509         71.2273822       -0.330481987        -9.90957151
7.018e+09      -0.331165567        -10.0434902        -67.8660125          71.081811        -67.8660125          71.081811       -0.331165567        -10.0434902
7.019e+09      -0.331852431        -10.1776788        -67.7789664         70.9359356        -67.7789664         70.9359356       -0.331852431        -10.1776788
7.02e+09        -0.3325426        -10.3121387        -67.6918123         70.7897546        -67.6918123         70.7897546         -0.3325426        -10.3121387
7.021e+09      -0.333236099        -10.4468713        -67.6045499         70.6432664        -67.6045499         70.6432664       -0.333236099        -10.4468713
7.022e+09      -0.333932947        -10.5818778        -67.5171788         70.4964695        -67.5171788         70.4964695       -0.333932947        -10.5818778
7.023e+09      -0.334633169        -10.7171597        -67.4296988         70.3493624        -67.4296988         70.3493624       -0.334633169        -10.7171597
7.024e+09      -0.335336788        -10.8527182        -67.3421095         70.2019437        -67.3421095         70.2019437       -0.335336788        -10.8527182
7.025e+09      -0.336043825        -10.9885548        -67.2544107         70.0542117        -67.2544107         70.0542117       -0.336043825        -10.9885548
7.026e+09      -0.336754304        -11.1246709         -67.166602         69.9061649         -67.166602         69.9061649       -0.336754304        -11.1246709
7.027e+09      -0.337468249        -11.2610678        -67.0786831         69.7578019        -67.0786831         69.7578019       -0.337468249        -11.2610678
7.028e+09      -0.338185683        -11.3977469        -66.9906537          69.609121        -66.9906537          69.609121       -0.338185683        -11.3977469
7.029e+09      -0.338906631        -11.5347097        -66.9025135         69.4601206        -66.9025135         69.4601206       -0.338906631        -11.5347097
7.03e+09      -0.339631115        -11.6719576        -66.8142622         69.3107992        -66.8142622         69.3107992       -0.339631115        -11.6719576
7.031e+09      -0.340359161        -11.8094919        -66.7258994         69.1611552        -66.7258994         69.1611552       -0.340359161        -11.8094919
7.032e+09      -0.341090792        -11.9473142        -66.6374248         69.0111869        -66.6374248         69.0111869       -0.341090792        -11.9473142
7.033e+09      -0.341826033        -12.0854258        -66.5488381         68.8608928        -66.5488381         68.8608928       -0.341826033        -12.0854258
7.034e+09       -0.34256491        -12.2238283         -66.460139         68.7102713         -66.460139         68.7102713        -0.34256491        -12.2238283
7.035e+09      -0.343307447        -12.3625232        -66.3713272         68.5593206        -66.3713272         68.5593206       -0.343307447        -12.3625232
7.036e+09       -0.34405367        -12.5015118        -66.2824023         68.4080392        -66.2824023         68.4080392        -0.34405367        -12.5015118
7.037e+09      -0.344803603        -12.6407957         -66.193364         68.2564254         -66.193364         68.2564254       -0.344803603        -12.6407957
7.038e+09      -0.345557273        -12.7803764        -66.1042119         68.1044775        -66.1042119         68.1044775       -0.345557273        -12.7803764
7.039e+09      -0.346314706        -12.9202554        -66.0149458         67.9521938        -66.0149458         67.9521938       -0.346314706        -12.9202554
7.04e+09      -0.347075928        -13.0604342        -65.9255653         67.7995727        -65.9255653         67.7995727       -0.347075928        -13.0604342
7.041e+09      -0.347840965        -13.2009144          -65.83607         67.6466124          -65.83607         67.6466124       -0.347840965        -13.2009144
7.042e+09      -0.348609844        -13.3416974        -65.7464597         67.4933112        -65.7464597         67.4933112       -0.348609844        -13.3416974
7.043e+09      -0.349382592        -13.4827849         -65.656734         67.3396674         -65.656734         67.3396674       -0.349382592        -13.4827849
7.044e+09      -0.350159236        -13.6241785        -65.5668926         67.1856793        -65.5668926         67.1856793       -0.350159236        -13.6241785
7.045e+09      -0.350939803        -13.7658796        -65.4769351         67.0313451        -65.4769351         67.0313451       -0.350939803        -13.7658796
7.046e+09      -0.351724321        -13.9078899        -65.3868612          66.876663        -65.3868612          66.876663       -0.351724321        -13.9078899
7.047e+09      -0.352512819        -14.0502109        -65.2966705         66.7216312        -65.2966705         66.7216312       -0.352512819        -14.0502109
7.048e+09      -0.353305323        -14.1928444        -65.2063627          66.566248        -65.2063627          66.566248       -0.353305323        -14.1928444
7.049e+09      -0.354101862        -14.3357918        -65.1159374         66.4105116        -65.1159374         66.4105116       -0.354101862        -14.3357918
7.05e+09      -0.354902465        -14.4790549        -65.0253944         66.2544201        -65.0253944         66.2544201       -0.354902465        -14.4790549
7.051e+09      -0.355707161        -14.6226353        -64.9347332         66.0979717        -64.9347332         66.0979717       -0.355707161        -14.6226353
7.052e+09      -0.356515979        -14.7665346        -64.8439536         65.9411646        -64.8439536         65.9411646       -0.356515979        -14.7665346
7.053e+09      -0.357328948        -14.9107545         -64.753055         65.7839969         -64.753055         65.7839969       -0.357328948        -14.9107545
7.054e+09      -0.358146099        -15.0552967        -64.6620373         65.6264668        -64.6620373         65.6264668       -0.358146099        -15.0552967
7.055e+09       -0.35896746        -15.2001629        -64.5709001         65.4685723        -64.5709001         65.4685723        -0.35896746        -15.2001629
7.056e+09      -0.359793062        -15.3453548        -64.4796429         65.3103117        -64.4796429         65.3103117       -0.359793062        -15.3453548
7.057e+09      -0.360622936         -15.490874        -64.3882654         65.1516829        -64.3882654         65.1516829       -0.360622936         -15.490874
7.058e+09      -0.361457113        -15.6367224        -64.2967674          64.992684        -64.2967674          64.992684       -0.361457113        -15.6367224
7.059e+09      -0.362295623        -15.7829017        -64.2051483         64.8333132        -64.2051483         64.8333132       -0.362295623        -15.7829017
7.06e+09      -0.363138497        -15.9294136        -64.1134079         64.6735684        -64.1134079         64.6735684       -0.363138497        -15.9294136
7.061e+09      -0.363985768        -16.0762599        -64.0215458         64.5134477        -64.0215458         64.5134477       -0.363985768        -16.0762599
7.062e+09      -0.364837467        -16.2234423        -63.9295616         64.3529492        -63.9295616         64.3529492       -0.364837467        -16.2234423
7.063e+09      -0.365693627        -16.3709628         -63.837455         64.1920707         -63.837455         64.1920707       -0.365693627        -16.3709628
7.064e+09      -0.366554279         -16.518823        -63.7452255         64.0308105        -63.7452255         64.0308105       -0.366554279         -16.518823
7.065e+09      -0.367419458        -16.6670247        -63.6528729         63.8691663        -63.6528729         63.8691663       -0.367419458        -16.6670247
7.066e+09      -0.368289195        -16.8155699        -63.5603966         63.7071362        -63.5603966         63.7071362       -0.368289195        -16.8155699
7.067e+09      -0.369163524        -16.9644604        -63.4677965         63.5447181        -63.4677965         63.5447181       -0.369163524        -16.9644604
7.068e+09       -0.37004248         -17.113698        -63.3750721           63.38191        -63.3750721           63.38191        -0.37004248         -17.113698
7.069e+09      -0.370926095        -17.2632846        -63.2822229         63.2187098        -63.2822229         63.2187098       -0.370926095        -17.2632846
7.07e+09      -0.371814405        -17.4132221        -63.1892488         63.0551154        -63.1892488         63.0551154       -0.371814405        -17.4132221
7.071e+09      -0.372707443        -17.5635124        -63.0961491         62.8911247        -63.0961491         62.8911247       -0.372707443        -17.5635124
7.072e+09      -0.373605246        -17.7141574        -63.0029237         62.7267355        -63.0029237         62.7267355       -0.373605246        -17.7141574
7.073e+09      -0.374507848         -17.865159         -62.909572         62.5619457         -62.909572         62.5619457       -0.374507848         -17.865159
7.074e+09      -0.375415285        -18.0165192        -62.8160937         62.3967532        -62.8160937         62.3967532       -0.375415285        -18.0165192
7.075e+09      -0.376327593        -18.1682399        -62.7224885         62.2311558        -62.7224885         62.2311558       -0.376327593        -18.1682399
7.076e+09      -0.377244808        -18.3203232        -62.6287558         62.0651513        -62.6287558         62.0651513       -0.377244808        -18.3203232
7.077e+09      -0.378166968        -18.4727709        -62.5348954         61.8987375        -62.5348954         61.8987375       -0.378166968        -18.4727709
7.078e+09      -0.379094108        -18.6255852        -62.4409069         61.7319122        -62.4409069         61.7319122       -0.379094108        -18.6255852
7.079e+09      -0.380026266        -18.7787679        -62.3467898         61.5646731        -62.3467898         61.5646731       -0.380026266        -18.7787679
7.08e+09      -0.380963481        -18.9323213        -62.2525437          61.397018        -62.2525437          61.397018       -0.380963481        -18.9323213
7.081e+09       -0.38190579        -19.0862472        -62.1581683         61.2289447        -62.1581683         61.2289447        -0.38190579        -19.0862472
7.082e+09      -0.382853231        -19.2405478        -62.0636632         61.0604507        -62.0636632         61.0604507       -0.382853231        -19.2405478
7.083e+09      -0.383805844        -19.3952251        -61.9690279         60.8915339        -61.9690279         60.8915339       -0.383805844        -19.3952251
7.084e+09      -0.384763667        -19.5502813         -61.874262         60.7221919         -61.874262         60.7221919       -0.384763667        -19.5502813
7.085e+09      -0.385726741        -19.7057185        -61.7793652         60.5524224        -61.7793652         60.5524224       -0.385726741        -19.7057185
7.086e+09      -0.386695105        -19.8615387         -61.684337          60.382223         -61.684337          60.382223       -0.386695105        -19.8615387
7.087e+09      -0.387668799        -20.0177442        -61.5891771         60.2115913        -61.5891771         60.2115913       -0.387668799        -20.0177442
7.088e+09      -0.388647865         -20.174337        -61.4938849         60.0405249        -61.4938849         60.0405249       -0.388647865         -20.174337
7.089e+09      -0.389632343        -20.3313194        -61.3984602         59.8690215        -61.3984602         59.8690215       -0.389632343        -20.3313194
7.09e+09      -0.390622275        -20.4886936        -61.3029024         59.6970786        -61.3029024         59.6970786       -0.390622275        -20.4886936
7.091e+09      -0.391617702        -20.6464618        -61.2072113         59.5246938        -61.2072113         59.5246938       -0.391617702        -20.6464618
7.092e+09      -0.392618668        -20.8046261        -61.1113862         59.3518646        -61.1113862         59.3518646       -0.392618668        -20.8046261
7.093e+09      -0.393625214        -20.9631889        -61.0154269         59.1785884        -61.0154269         59.1785884       -0.393625214        -20.9631889
7.094e+09      -0.394637385        -21.1221524         -60.919333         59.0048629         -60.919333         59.0048629       -0.394637385        -21.1221524
7.095e+09      -0.395655223        -21.2815189        -60.8231039         58.8306855        -60.8231039         58.8306855       -0.395655223        -21.2815189
7.096e+09      -0.396678773        -21.4412907        -60.7267392         58.6560536        -60.7267392         58.6560536       -0.396678773        -21.4412907
7.097e+09      -0.397708079        -21.6014701        -60.6302386         58.4809648        -60.6302386         58.4809648       -0.397708079        -21.6014701
7.098e+09      -0.398743186        -21.7620594        -60.5336016         58.3054163        -60.5336016         58.3054163       -0.398743186        -21.7620594
7.099e+09      -0.399784139         -21.923061        -60.4368277         58.1294056        -60.4368277         58.1294056       -0.399784139         -21.923061
7.1e+09      -0.400830984        -22.0844773        -60.3399166         57.9529301        -60.3399166         57.9529301       -0.400830984        -22.0844773
7.101e+09      -0.401883768        -22.2463106        -60.2428678         57.7759872        -60.2428678         57.7759872       -0.401883768        -22.2463106
7.102e+09      -0.402942536        -22.4085634        -60.1456808         57.5985741        -60.1456808         57.5985741       -0.402942536        -22.4085634
7.103e+09      -0.404007337        -22.5712381        -60.0483553         57.4206882        -60.0483553         57.4206882       -0.404007337        -22.5712381
7.104e+09      -0.405078217        -22.7343371        -59.9508907         57.2423269        -59.9508907         57.2423269       -0.405078217        -22.7343371
7.105e+09      -0.406155226         -22.897863        -59.8532867         57.0634873        -59.8532867         57.0634873       -0.406155226         -22.897863
7.106e+09       -0.40723841        -23.0618181        -59.7555428         56.8841667        -59.7555428         56.8841667        -0.40723841        -23.0618181
7.107e+09      -0.408327821         -23.226205        -59.6576585         56.7043624        -59.6576585         56.7043624       -0.408327821         -23.226205
7.108e+09      -0.409423507        -23.3910262        -59.5596334         56.5240716        -59.5596334         56.5240716       -0.409423507        -23.3910262
7.109e+09      -0.410525517        -23.5562844         -59.461467         56.3432915         -59.461467         56.3432915       -0.410525517        -23.5562844
7.11e+09      -0.411633904        -23.7219819        -59.3631589         56.1620191        -59.3631589         56.1620191       -0.411633904        -23.7219819
7.111e+09      -0.412748718        -23.8881215        -59.2647086         55.9802518        -59.2647086         55.9802518       -0.412748718        -23.8881215
7.112e+09       -0.41387001        -24.0547057        -59.1661157         55.7979866        -59.1661157         55.7979866        -0.41387001        -24.0547057
7.113e+09      -0.414997832        -24.2217372        -59.0673797         55.6152205        -59.0673797         55.6152205       -0.414997832        -24.2217372
7.114e+09      -0.416132238        -24.3892185        -58.9685001         55.4319508        -58.9685001         55.4319508       -0.416132238        -24.3892185
7.115e+09      -0.417273281        -24.5571525        -58.8694765         55.2481744        -58.8694765         55.2481744       -0.417273281        -24.5571525
7.116e+09      -0.418421014        -24.7255418        -58.7703085         55.0638883        -58.7703085         55.0638883       -0.418421014        -24.7255418
7.117e+09      -0.419575491         -24.894389        -58.6709954         54.8790896        -58.6709954         54.8790896       -0.419575491         -24.894389
7.118e+09      -0.420736768         -25.063697         -58.571537         54.6937753         -58.571537         54.6937753       -0.420736768         -25.063697
7.119e+09        -0.4219049        -25.2334684        -58.4719326         54.5079423        -58.4719326         54.5079423         -0.4219049        -25.2334684
7.12e+09      -0.423079942        -25.4037062        -58.3721818         54.3215875        -58.3721818         54.3215875       -0.423079942        -25.4037062
7.121e+09      -0.424261952         -25.574413        -58.2722842         54.1347079        -58.2722842         54.1347079       -0.424261952         -25.574413
