! Created Sun Apr  7 04:29:05 2024
# hz S db R 50
! 2 Port Network Data from SP1.SP block
! freq  dbS11  angS11  dbS21  angS21  dbS12  angS12  dbS22  angS22  
!     
7e+09      -0.319183391         -7.6463706        -69.4361635          73.686492        -69.4361635          73.686492       -0.319183391         -7.6463706
7.001e+09      -0.319813576        -7.77582841          -69.35104         73.5459496          -69.35104         73.5459496       -0.319813576        -7.77582841
7.002e+09      -0.320446692        -7.90553462        -69.2658138          73.405127        -69.2658138          73.405127       -0.320446692        -7.90553462
7.003e+09      -0.321082759        -8.03549041        -69.1804847         73.2640231        -69.1804847         73.2640231       -0.321082759        -8.03549041
7.004e+09      -0.321721795        -8.16569696        -69.0950524         73.1226363        -69.0950524         73.1226363       -0.321721795        -8.16569696
7.005e+09       -0.32236382        -8.29615549        -69.0095166         72.9809654        -69.0095166         72.9809654        -0.32236382        -8.29615549
7.006e+09      -0.323008854        -8.42686719         -68.923877         72.8390091         -68.923877         72.8390091       -0.323008854        -8.42686719
7.007e+09      -0.323656916        -8.55783329        -68.8381333          72.696766        -68.8381333          72.696766       -0.323656916        -8.55783329
7.008e+09      -0.324308026        -8.68905499        -68.7522852         72.5542347        -68.7522852         72.5542347       -0.324308026        -8.68905499
7.009e+09      -0.324962205        -8.82053355        -68.6663325         72.4114138        -68.6663325         72.4114138       -0.324962205        -8.82053355
7.01e+09      -0.325619472        -8.95227018        -68.5802749          72.268302        -68.5802749          72.268302       -0.325619472        -8.95227018
7.011e+09      -0.326279847        -9.08426615         -68.494112         72.1248979         -68.494112         72.1248979       -0.326279847        -9.08426615
7.012e+09      -0.326943352         -9.2165227        -68.4078436         71.9812001        -68.4078436         71.9812001       -0.326943352         -9.2165227
7.013e+09      -0.327610007        -9.34904111        -68.3214693         71.8372071        -68.3214693         71.8372071       -0.327610007        -9.34904111
7.014e+09      -0.328279833        -9.48182263         -68.234989         71.6929175         -68.234989         71.6929175       -0.328279833        -9.48182263
7.015e+09      -0.328952851        -9.61486856        -68.1484022           71.54833        -68.1484022           71.54833       -0.328952851        -9.61486856
7.016e+09      -0.329629083        -9.74818019        -68.0617087          71.403443        -68.0617087          71.403443       -0.329629083        -9.74818019
7.017e+09      -0.330308549         -9.8817588        -67.9749081         71.2582552        -67.9749081         71.2582552       -0.330308549         -9.8817588
7.018e+09      -0.330991272        -10.0156057        -67.8880003          71.112765        -67.8880003          71.112765       -0.330991272        -10.0156057
7.019e+09      -0.331677272        -10.1497222        -67.8009848         70.9669711        -67.8009848         70.9669711       -0.331677272        -10.1497222
7.02e+09      -0.332366573        -10.2841097        -67.7138613         70.8208718        -67.7138613         70.8208718       -0.332366573        -10.2841097
7.021e+09      -0.333059196        -10.4187694        -67.6266297         70.6744658        -67.6266297         70.6744658       -0.333059196        -10.4187694
7.022e+09      -0.333755164        -10.5537028        -67.5392895         70.5277515        -67.5392895         70.5277515       -0.333755164        -10.5537028
7.023e+09      -0.334454499        -10.6889111        -67.4518404         70.3807275        -67.4518404         70.3807275       -0.334454499        -10.6889111
7.024e+09      -0.335157224        -10.8243957        -67.3642822         70.2333922        -67.3642822         70.2333922       -0.335157224        -10.8243957
7.025e+09      -0.335863363        -10.9601581        -67.2766145          70.085744        -67.2766145          70.085744       -0.335863363        -10.9601581
7.026e+09      -0.336572937        -11.0961995         -67.188837         69.9377816         -67.188837         69.9377816       -0.336572937        -11.0961995
7.027e+09       -0.33728597        -11.2325213        -67.1009494         69.7895032        -67.1009494         69.7895032        -0.33728597        -11.2325213
7.028e+09      -0.338002487        -11.3691251        -67.0129514         69.6409073        -67.0129514         69.6409073       -0.338002487        -11.3691251
7.029e+09       -0.33872251        -11.5060121        -66.9248427         69.4919925        -66.9248427         69.4919925        -0.33872251        -11.5060121
7.03e+09      -0.339446064        -11.6431837        -66.8366229          69.342757        -66.8366229          69.342757       -0.339446064        -11.6431837
7.031e+09      -0.340173172        -11.7806415        -66.7482918         69.1931994        -66.7482918         69.1931994       -0.340173172        -11.7806415
7.032e+09       -0.34090386        -11.9183869         -66.659849         69.0433179         -66.659849         69.0433179        -0.34090386        -11.9183869
7.033e+09      -0.341638151        -12.0564213        -66.5712941          68.893111        -66.5712941          68.893111       -0.341638151        -12.0564213
7.034e+09      -0.342376071        -12.1947461         -66.482627         68.7425772         -66.482627         68.7425772       -0.342376071        -12.1947461
7.035e+09      -0.343117645        -12.3333628        -66.3938472         68.5917146        -66.3938472         68.5917146       -0.343117645        -12.3333628
7.036e+09      -0.343862897        -12.4722729        -66.3049543         68.4405217        -66.3049543         68.4405217       -0.343862897        -12.4722729
7.037e+09      -0.344611854        -12.6114779        -66.2159482         68.2889969        -66.2159482         68.2889969       -0.344611854        -12.6114779
7.038e+09       -0.34536454        -12.7509793        -66.1268285         68.1371385        -66.1268285         68.1371385        -0.34536454        -12.7509793
7.039e+09      -0.346120982        -12.8907786        -66.0375948         67.9849447        -66.0375948         67.9849447       -0.346120982        -12.8907786
7.04e+09      -0.346881206        -13.0308773        -65.9482467         67.8324139        -65.9482467         67.8324139       -0.346881206        -13.0308773
7.041e+09      -0.347645239        -13.1712769        -65.8587841         67.6795444        -65.8587841         67.6795444       -0.347645239        -13.1712769
7.042e+09      -0.348413106         -13.311979        -65.7692065         67.5263346        -65.7692065         67.5263346       -0.348413106         -13.311979
7.043e+09      -0.349184835        -13.4529852        -65.6795135         67.3727825        -65.6795135         67.3727825       -0.349184835        -13.4529852
7.044e+09      -0.349960452        -13.5942969         -65.589705         67.2188866         -65.589705         67.2188866       -0.349960452        -13.5942969
7.045e+09      -0.350739986        -13.7359159        -65.4997804          67.064645        -65.4997804          67.064645       -0.350739986        -13.7359159
7.046e+09      -0.351523463        -13.8778435        -65.4097395         66.9100561        -65.4097395         66.9100561       -0.351523463        -13.8778435
7.047e+09      -0.352310912        -14.0200815         -65.319582          66.755118         -65.319582          66.755118       -0.352310912        -14.0200815
7.048e+09       -0.35310236        -14.1626315        -65.2293075         66.5998289        -65.2293075         66.5998289        -0.35310236        -14.1626315
7.049e+09      -0.353897836         -14.305495        -65.1389156         66.4441871        -65.1389156         66.4441871       -0.353897836         -14.305495
7.05e+09      -0.354697368        -14.4486737         -65.048406         66.2881907         -65.048406         66.2881907       -0.354697368        -14.4486737
7.051e+09      -0.355500985        -14.5921693        -64.9577784         66.1318379        -64.9577784         66.1318379       -0.355500985        -14.5921693
7.052e+09      -0.356308717        -14.7359834        -64.8670323         65.9751269        -64.8670323         65.9751269       -0.356308717        -14.7359834
7.053e+09      -0.357120592        -14.8801176        -64.7761676         65.8180558        -64.7761676         65.8180558       -0.357120592        -14.8801176
7.054e+09       -0.35793664        -15.0245737        -64.6851837         65.6606227        -64.6851837         65.6606227        -0.35793664        -15.0245737
7.055e+09      -0.358756891        -15.1693533        -64.5940804         65.5028259        -64.5940804         65.5028259       -0.358756891        -15.1693533
7.056e+09      -0.359581375        -15.3144581        -64.5028572         65.3446633        -64.5028572         65.3446633       -0.359581375        -15.3144581
7.057e+09      -0.360410122        -15.4598898        -64.4115139         65.1861331        -64.4115139         65.1861331       -0.360410122        -15.4598898
7.058e+09      -0.361243164        -15.6056502        -64.3200501         65.0272333        -64.3200501         65.0272333       -0.361243164        -15.6056502
7.059e+09      -0.362080531        -15.7517411        -64.2284654         64.8679621        -64.2284654         64.8679621       -0.362080531        -15.7517411
7.06e+09      -0.362922254         -15.898164        -64.1367594         64.7083175        -64.1367594         64.7083175       -0.362922254         -15.898164
7.061e+09      -0.363768365        -16.0449209        -64.0449319         64.5482976        -64.0449319         64.5482976       -0.363768365        -16.0449209
7.062e+09      -0.364618896        -16.1920135        -63.9529823         64.3879003        -63.9529823         64.3879003       -0.364618896        -16.1920135
7.063e+09      -0.365473878        -16.3394436        -63.8609104         64.2271236        -63.8609104         64.2271236       -0.365473878        -16.3394436
7.064e+09      -0.366333345        -16.4872129        -63.7687159         64.0659656        -63.7687159         64.0659656       -0.366333345        -16.4872129
7.065e+09      -0.367197329        -16.6353234        -63.6763982         63.9044243        -63.6763982         63.9044243       -0.367197329        -16.6353234
7.066e+09      -0.368065863        -16.7837768         -63.583957         63.7424976         -63.583957         63.7424976       -0.368065863        -16.7837768
7.067e+09       -0.36893898        -16.9325749        -63.4913921         63.5801835        -63.4913921         63.5801835        -0.36893898        -16.9325749
7.068e+09      -0.369816714        -17.0817197        -63.3987029         63.4174799        -63.3987029         63.4174799       -0.369816714        -17.0817197
7.069e+09      -0.370699099         -17.231213        -63.3058892         63.2543848        -63.3058892         63.2543848       -0.370699099         -17.231213
7.07e+09       -0.37158617        -17.3810567        -63.2129505          63.090896        -63.2129505          63.090896        -0.37158617        -17.3810567
7.071e+09      -0.372477959        -17.5312526        -63.1198865         62.9270115        -63.1198865         62.9270115       -0.372477959        -17.5312526
7.072e+09      -0.373374504        -17.6818027        -63.0266967         62.7627291        -63.0266967         62.7627291       -0.373374504        -17.6818027
7.073e+09      -0.374275839         -17.832709        -62.9333809         62.5980467        -62.9333809         62.5980467       -0.374275839         -17.832709
7.074e+09      -0.375181998        -17.9839733        -62.8399385         62.4329621        -62.8399385         62.4329621       -0.375181998        -17.9839733
7.075e+09       -0.37609302        -18.1355976        -62.7463693         62.2674732        -62.7463693         62.2674732        -0.37609302        -18.1355976
7.076e+09      -0.377008938        -18.2875839        -62.6526728         62.1015778        -62.6526728         62.1015778       -0.377008938        -18.2875839
7.077e+09      -0.377929791        -18.4399342        -62.5588487         61.9352737        -62.5588487         61.9352737       -0.377929791        -18.4399342
7.078e+09      -0.378855616        -18.5926504        -62.4648965         61.7685587        -62.4648965         61.7685587       -0.378855616        -18.5926504
7.079e+09      -0.379786448        -18.7457346        -62.3708159         61.6014305        -62.3708159         61.6014305       -0.379786448        -18.7457346
7.08e+09      -0.380722326        -18.8991888        -62.2766064          61.433887        -62.2766064          61.433887       -0.380722326        -18.8991888
7.081e+09      -0.381663289        -19.0530151        -62.1822677         61.2659257        -62.1822677         61.2659257       -0.381663289        -19.0530151
7.082e+09      -0.382609373        -19.2072155        -62.0877994         61.0975445        -62.0877994         61.0975445       -0.382609373        -19.2072155
7.083e+09      -0.383560619        -19.3617921         -61.993201         60.9287411         -61.993201         60.9287411       -0.383560619        -19.3617921
7.084e+09      -0.384517065        -19.5167469        -61.8984722          60.759513        -61.8984722          60.759513       -0.384517065        -19.5167469
7.085e+09      -0.385478751        -19.6720822        -61.8036125         60.5898581        -61.8036125         60.5898581       -0.385478751        -19.6720822
7.086e+09      -0.386445716        -19.8277999        -61.7086216         60.4197739        -61.7086216         60.4197739       -0.386445716        -19.8277999
7.087e+09         -0.387418        -19.9839023        -61.6134991         60.2492581        -61.6134991         60.2492581          -0.387418        -19.9839023
7.088e+09      -0.388395646        -20.1403915        -61.5182444         60.0783083        -61.5182444         60.0783083       -0.388395646        -20.1403915
7.089e+09      -0.389378692        -20.2972697        -61.4228573         59.9069221        -61.4228573         59.9069221       -0.389378692        -20.2972697
7.09e+09      -0.390367181        -20.4545391        -61.3273373         59.7350971        -61.3273373         59.7350971       -0.390367181        -20.4545391
7.091e+09      -0.391361155        -20.6122018         -61.231684         59.5628307         -61.231684         59.5628307       -0.391361155        -20.6122018
7.092e+09      -0.392360655        -20.7702602        -61.1358969         59.3901207        -61.1358969         59.3901207       -0.392360655        -20.7702602
7.093e+09      -0.393365725        -20.9287163        -61.0399757         59.2169644        -61.0399757         59.2169644       -0.393365725        -20.9287163
7.094e+09      -0.394376407        -21.0875726          -60.94392         59.0433594          -60.94392         59.0433594       -0.394376407        -21.0875726
7.095e+09      -0.395392746        -21.2468313        -60.8477292         58.8693032        -60.8477292         58.8693032       -0.395392746        -21.2468313
7.096e+09      -0.396414784        -21.4064946         -60.751403         58.6947932         -60.751403         58.6947932       -0.396414784        -21.4064946
7.097e+09      -0.397442566        -21.5665649         -60.654941         58.5198268         -60.654941         58.5198268       -0.397442566        -21.5665649
7.098e+09      -0.398476137        -21.7270445        -60.5583426         58.3444016        -60.5583426         58.3444016       -0.398476137        -21.7270445
7.099e+09      -0.399515543        -21.8879358        -60.4616076         58.1685149        -60.4616076         58.1685149       -0.399515543        -21.8879358
7.1e+09      -0.400560828        -22.0492411        -60.3647354         57.9921641        -60.3647354         57.9921641       -0.400560828        -22.0492411
7.101e+09      -0.401612039        -22.2109629        -60.2677257         57.8153465        -60.2677257         57.8153465       -0.401612039        -22.2109629
7.102e+09      -0.402669223        -22.3731034        -60.1705779         57.6380596        -60.1705779         57.6380596       -0.402669223        -22.3731034
7.103e+09      -0.403732426        -22.5356652        -60.0732917         57.4603005        -60.0732917         57.4603005       -0.403732426        -22.5356652
7.104e+09      -0.404801696        -22.6986506        -59.9758665         57.2820667        -59.9758665         57.2820667       -0.404801696        -22.6986506
7.105e+09      -0.405877081        -22.8620622        -59.8783021         57.1033554        -59.8783021         57.1033554       -0.405877081        -22.8620622
7.106e+09       -0.40695863        -23.0259024        -59.7805978         56.9241639        -59.7805978         56.9241639        -0.40695863        -23.0259024
7.107e+09      -0.408046391        -23.1901737        -59.6827533         56.7444894        -59.6827533         56.7444894       -0.408046391        -23.1901737
7.108e+09      -0.409140414        -23.3548787        -59.5847681         56.5643291        -59.5847681         56.5643291       -0.409140414        -23.3548787
7.109e+09      -0.410240748        -23.5200199        -59.4866418         56.3836802        -59.4866418         56.3836802       -0.410240748        -23.5200199
7.11e+09      -0.411347445        -23.6855998        -59.3883739           56.20254        -59.3883739           56.20254       -0.411347445        -23.6855998
7.111e+09      -0.412460555         -23.851621         -59.289964         56.0209055         -59.289964         56.0209055       -0.412460555         -23.851621
7.112e+09       -0.41358013        -24.0180862        -59.1914115         55.8387738        -59.1914115         55.8387738        -0.41358013        -24.0180862
7.113e+09      -0.414706222        -24.1849979        -59.0927161         55.6561422        -59.0927161         55.6561422       -0.414706222        -24.1849979
7.114e+09      -0.415838883        -24.3523588        -58.9938772         55.4730076        -58.9938772         55.4730076       -0.415838883        -24.3523588
7.115e+09      -0.416978166        -24.5201716        -58.8948945         55.2893672        -58.8948945         55.2893672       -0.416978166        -24.5201716
7.116e+09      -0.418124124        -24.6884389        -58.7957674         55.1052179        -58.7957674         55.1052179       -0.418124124        -24.6884389
7.117e+09      -0.419276813        -24.8571635        -58.6964955         54.9205568        -58.6964955         54.9205568       -0.419276813        -24.8571635
7.118e+09      -0.420436287        -25.0263481        -58.5970782         54.7353808        -58.5970782         54.7353808       -0.420436287        -25.0263481
7.119e+09        -0.4216026        -25.1959955        -58.4975152          54.549687        -58.4975152          54.549687         -0.4216026        -25.1959955
7.12e+09       -0.42277581        -25.3661083         -58.397806         54.3634723         -58.397806         54.3634723        -0.42277581        -25.3661083
7.121e+09      -0.423955971        -25.5366895          -58.29795         54.1767336          -58.29795         54.1767336       -0.423955971        -25.5366895
